Freq.	V(a)-V(b)
5.00000000000000e+06	(-2.60268347846104e+01dB,-9.63607332947384e+00°)
5.01152619038950e+06	(-2.59863479842710e+01dB,-9.61693897212159e+00°)
5.02307895139197e+06	(-2.59458543322198e+01dB,-9.59785309170742e+00°)
5.03465834425902e+06	(-2.59053538156668e+01dB,-9.57881561218085e+00°)
5.04626443038342e+06	(-2.58648464216685e+01dB,-9.55982645764400e+00°)
5.05789727129949e+06	(-2.58243321371270e+01dB,-9.54088555235328e+00°)
5.06955692868340e+06	(-2.57838109487900e+01dB,-9.52199282072003e+00°)
5.08124346435348e+06	(-2.57432828432494e+01dB,-9.50314818731015e+00°)
5.09295694027058e+06	(-2.57027478069417e+01dB,-9.48435157684638e+00°)
5.10469741853840e+06	(-2.56622058261470e+01dB,-9.46560291420786e+00°)
5.11646496140377e+06	(-2.56216568869886e+01dB,-9.44690212443128e+00°)
5.12825963125703e+06	(-2.55811009754330e+01dB,-9.42824913271177e+00°)
5.14008149063236e+06	(-2.55405380772880e+01dB,-9.40964386440277e+00°)
5.15193060220808e+06	(-2.54999681782044e+01dB,-9.39108624501808e+00°)
5.16380702880698e+06	(-2.54593912636729e+01dB,-9.37257620023097e+00°)
5.17571083339672e+06	(-2.54188073190260e+01dB,-9.35411365587645e+00°)
5.18764207909006e+06	(-2.53782163294355e+01dB,-9.33569853795092e+00°)
5.19960082914529e+06	(-2.53376182799135e+01dB,-9.31733077261255e+00°)
5.21158714696652e+06	(-2.52970131553106e+01dB,-9.29901028618324e+00°)
5.22360109610400e+06	(-2.52564009403164e+01dB,-9.28073700514887e+00°)
5.23564274025449e+06	(-2.52157816194584e+01dB,-9.26251085615918e+00°)
5.24771214326160e+06	(-2.51751551771013e+01dB,-9.24433176602906e+00°)
5.25980936911611e+06	(-2.51345215974473e+01dB,-9.22619966173939e+00°)
5.27193448195629e+06	(-2.50938808645344e+01dB,-9.20811447043779e+00°)
5.28408754606829e+06	(-2.50532329622365e+01dB,-9.19007611943841e+00°)
5.29626862588644e+06	(-2.50125778742630e+01dB,-9.17208453622378e+00°)
5.30847778599362e+06	(-2.49719155841575e+01dB,-9.15413964844478e+00°)
5.32071509112157e+06	(-2.49312460752980e+01dB,-9.13624138392151e+00°)
5.33298060615128e+06	(-2.48905693308959e+01dB,-9.11838967064407e+00°)
5.34527439611328e+06	(-2.48498853339954e+01dB,-9.10058443677281e+00°)
5.35759652618802e+06	(-2.48091940674733e+01dB,-9.08282561063967e+00°)
5.36994706170622e+06	(-2.47684955140377e+01dB,-9.06511312074842e+00°)
5.38232606814916e+06	(-2.47277896562280e+01dB,-9.04744689577527e+00°)
5.39473361114914e+06	(-2.46870764764140e+01dB,-9.02982686456966e+00°)
5.40716975648968e+06	(-2.46463559567958e+01dB,-9.01225295615559e+00°)
5.41963457010601e+06	(-2.46056280794020e+01dB,-8.99472509973067e+00°)
5.43212811808532e+06	(-2.45648928260904e+01dB,-8.97724322466865e+00°)
5.44465046666716e+06	(-2.45241501785470e+01dB,-8.95980726051888e+00°)
5.45720168224377e+06	(-2.44834001182846e+01dB,-8.94241713700736e+00°)
5.46978183136046e+06	(-2.44426426266430e+01dB,-8.92507278403733e+00°)
5.48239098071591e+06	(-2.44018776847880e+01dB,-8.90777413168995e+00°)
5.49502919716259e+06	(-2.43611052737110e+01dB,-8.89052111022549e+00°)
5.50769654770706e+06	(-2.43203253742283e+01dB,-8.87331365008303e+00°)
5.52039309951035e+06	(-2.42795379669799e+01dB,-8.85615168188171e+00°)
5.53311891988832e+06	(-2.42387430324297e+01dB,-8.83903513642158e+00°)
5.54587407631199e+06	(-2.41979405508642e+01dB,-8.82196394468378e+00°)
5.55865863640794e+06	(-2.41571305023916e+01dB,-8.80493803783126e+00°)
5.57147266795864e+06	(-2.41163128669425e+01dB,-8.78795734721020e+00°)
5.58431623890279e+06	(-2.40754876242673e+01dB,-8.77102180434959e+00°)
5.59718941733574e+06	(-2.40346547539370e+01dB,-8.75413134096251e+00°)
5.61009227150980e+06	(-2.39938142353417e+01dB,-8.73728588894704e+00°)
5.62302486983462e+06	(-2.39529660476904e+01dB,-8.72048538038626e+00°)
5.63598728087754e+06	(-2.39121101700093e+01dB,-8.70372974754932e+00°)
5.64897957336397e+06	(-2.38712465811428e+01dB,-8.68701892289213e+00°)
5.66200181617777e+06	(-2.38303752597511e+01dB,-8.67035283905793e+00°)
5.67505407836156e+06	(-2.37894961843107e+01dB,-8.65373142887780e+00°)
5.68813642911714e+06	(-2.37486093331125e+01dB,-8.63715462537202e+00°)
5.70124893780582e+06	(-2.37077146842619e+01dB,-8.62062236174952e+00°)
5.71439167394884e+06	(-2.36668122156783e+01dB,-8.60413457141004e+00°)
5.72756470722766e+06	(-2.36259019050932e+01dB,-8.58769118794340e+00°)
5.74076810748440e+06	(-2.35849837300503e+01dB,-8.57129214513114e+00°)
5.75400194472216e+06	(-2.35440576679050e+01dB,-8.55493737694685e+00°)
5.76726628910544e+06	(-2.35031236958225e+01dB,-8.53862681755674e+00°)
5.78056121096048e+06	(-2.34621817907784e+01dB,-8.52236040132075e+00°)
5.79388678077561e+06	(-2.34212319295566e+01dB,-8.50613806279248e+00°)
5.80724306920169e+06	(-2.33802740887493e+01dB,-8.48995973672058e+00°)
5.82063014705244e+06	(-2.33393082447562e+01dB,-8.47382535804900e+00°)
5.83404808530479e+06	(-2.32983343737835e+01dB,-8.45773486191839e+00°)
5.84749695509933e+06	(-2.32573524518431e+01dB,-8.44168818366542e+00°)
5.86097682774063e+06	(-2.32163624547515e+01dB,-8.42568525882471e+00°)
5.87448777469763e+06	(-2.31753643581297e+01dB,-8.40972602312928e+00°)
5.88802986760401e+06	(-2.31343581374016e+01dB,-8.39381041251049e+00°)
5.90160317825863e+06	(-2.30933437677936e+01dB,-8.37793836309969e+00°)
5.91520777862580e+06	(-2.30523212243336e+01dB,-8.36210981122839e+00°)
5.92884374083578e+06	(-2.30112904818507e+01dB,-8.34632469342936e+00°)
5.94251113718507e+06	(-2.29702515149730e+01dB,-8.33058294643636e+00°)
5.95621004013685e+06	(-2.29292042981283e+01dB,-8.31488450718606e+00°)
5.96994052232134e+06	(-2.28881488055422e+01dB,-8.29922931281794e+00°)
5.98370265653619e+06	(-2.28470850112373e+01dB,-8.28361730067550e+00°)
5.99749651574687e+06	(-2.28060128890331e+01dB,-8.26804840830648e+00°)
6.01132217308704e+06	(-2.27649324125441e+01dB,-8.25252257346368e+00°)
6.02517970185896e+06	(-2.27238435551795e+01dB,-8.23703973410585e+00°)
6.03906917553387e+06	(-2.26827462901421e+01dB,-8.22159982839850e+00°)
6.05299066775239e+06	(-2.26416405904277e+01dB,-8.20620279471437e+00°)
6.06694425232486e+06	(-2.26005264288234e+01dB,-8.19084857163391e+00°)
6.08093000323181e+06	(-2.25594037779075e+01dB,-8.17553709794661e+00°)
6.09494799462430e+06	(-2.25182726100483e+01dB,-8.16026831265114e+00°)
6.10899830082433e+06	(-2.24771328974028e+01dB,-8.14504215495649e+00°)
6.12308099632522e+06	(-2.24359846119162e+01dB,-8.12985856428259e+00°)
6.13719615579201e+06	(-2.23948277253210e+01dB,-8.11471748026086e+00°)
6.15134385406188e+06	(-2.23536622091354e+01dB,-8.09961884273493e+00°)
6.16552416614451e+06	(-2.23124880346629e+01dB,-8.08456259176153e+00°)
6.17973716722252e+06	(-2.22713051729912e+01dB,-8.06954866761158e+00°)
6.19398293265182e+06	(-2.22301135949912e+01dB,-8.05457701076977e+00°)
6.20826153796202e+06	(-2.21889132713157e+01dB,-8.03964756193687e+00°)
6.22257305885689e+06	(-2.21477041723993e+01dB,-8.02476026202913e+00°)
6.23691757121468e+06	(-2.21064862684556e+01dB,-8.00991505217967e+00°)
6.25129515108857e+06	(-2.20652595294785e+01dB,-7.99511187373933e+00°)
6.26570587470705e+06	(-2.20240239252394e+01dB,-7.98035066827688e+00°)
6.28014981847434e+06	(-2.19827794252865e+01dB,-7.96563137758020e+00°)
6.29462705897080e+06	(-2.19415259989443e+01dB,-7.95095394365690e+00°)
6.30913767295332e+06	(-2.19002636153125e+01dB,-7.93631830873556e+00°)
6.32368173735572e+06	(-2.18589922432642e+01dB,-7.92172441526564e+00°)
6.33825932928919e+06	(-2.18177118514455e+01dB,-7.90717220591859e+00°)
6.35287052604267e+06	(-2.17764224082741e+01dB,-7.89266162358906e+00°)
6.36751540508327e+06	(-2.17351238819386e+01dB,-7.87819261139487e+00°)
6.38219404405668e+06	(-2.16938162403967e+01dB,-7.86376511267889e+00°)
6.39690652078759e+06	(-2.16524994513748e+01dB,-7.84937907100854e+00°)
6.41165291328007e+06	(-2.16111734823664e+01dB,-7.83503443017749e+00°)
6.42643329971804e+06	(-2.15698383006314e+01dB,-7.82073113420627e+00°)
6.44124775846563e+06	(-2.15284938731946e+01dB,-7.80646912734282e+00°)
6.45609636806763e+06	(-2.14871401668446e+01dB,-7.79224835406365e+00°)
6.47097920724989e+06	(-2.14457771481326e+01dB,-7.77806875907409e+00°)
6.48589635491974e+06	(-2.14044047833720e+01dB,-7.76393028731000e+00°)
6.50084789016641e+06	(-2.13630230386357e+01dB,-7.74983288393748e+00°)
6.51583389226146e+06	(-2.13216318797566e+01dB,-7.73577649435473e+00°)
6.53085444065917e+06	(-2.12802312723252e+01dB,-7.72176106419206e+00°)
6.54590961499699e+06	(-2.12388211816887e+01dB,-7.70778653931327e+00°)
6.56099949509597e+06	(-2.11974015729502e+01dB,-7.69385286581617e+00°)
6.57612416096115e+06	(-2.11559724109670e+01dB,-7.67995999003358e+00°)
6.59128369278199e+06	(-2.11145336603497e+01dB,-7.66610785853412e+00°)
6.60647817093283e+06	(-2.10730852854607e+01dB,-7.65229641812297e+00°)
6.62170767597328e+06	(-2.10316272504132e+01dB,-7.63852561584311e+00°)
6.63697228864865e+06	(-2.09901595190694e+01dB,-7.62479539897545e+00°)
6.65227208989041e+06	(-2.09486820550402e+01dB,-7.61110571504059e+00°)
6.66760716081658e+06	(-2.09071948216829e+01dB,-7.59745651179885e+00°)
6.68297758273217e+06	(-2.08656977821005e+01dB,-7.58384773725170e+00°)
6.69838343712963e+06	(-2.08241908991404e+01dB,-7.57027933964256e+00°)
6.71382480568927e+06	(-2.07826741353927e+01dB,-7.55675126745745e+00°)
6.72930177027970e+06	(-2.07411474531894e+01dB,-7.54326346942620e+00°)
6.74481441295822e+06	(-2.06996108146024e+01dB,-7.52981589452301e+00°)
6.76036281597134e+06	(-2.06580641814428e+01dB,-7.51640849196763e+00°)
6.77594706175513e+06	(-2.06165075152594e+01dB,-7.50304121122628e+00°)
6.79156723293572e+06	(-2.05749407773370e+01dB,-7.48971400201227e+00°)
6.80722341232970e+06	(-2.05333639286954e+01dB,-7.47642681428730e+00°)
6.82291568294457e+06	(-2.04917769300876e+01dB,-7.46317959826212e+00°)
6.83864412797920e+06	(-2.04501797419990e+01dB,-7.44997230439757e+00°)
6.85440883082422e+06	(-2.04085723246455e+01dB,-7.43680488340566e+00°)
6.87020987506253e+06	(-2.03669546379720e+01dB,-7.42367728625007e+00°)
6.88604734446968e+06	(-2.03253266416517e+01dB,-7.41058946414775e+00°)
6.90192132301437e+06	(-2.02836882950837e+01dB,-7.39754136856940e+00°)
6.91783189485885e+06	(-2.02420395573922e+01dB,-7.38453295124068e+00°)
6.93377914435939e+06	(-2.02003803874248e+01dB,-7.37156416414312e+00°)
6.94976315606671e+06	(-2.01587107437509e+01dB,-7.35863495951489e+00°)
6.96578401472646e+06	(-2.01170305846608e+01dB,-7.34574528985229e+00°)
6.98184180527963e+06	(-2.00753398681631e+01dB,-7.33289510791027e+00°)
6.99793661286304e+06	(-2.00336385519843e+01dB,-7.32008436670375e+00°)
7.01406852280974e+06	(-1.99919265935668e+01dB,-7.30731301950861e+00°)
7.03023762064951e+06	(-1.99502039500669e+01dB,-7.29458101986229e+00°)
7.04644399210932e+06	(-1.99084705783545e+01dB,-7.28188832156559e+00°)
7.06268772311372e+06	(-1.98667264350099e+01dB,-7.26923487868297e+00°)
7.07896889978535e+06	(-1.98249714763238e+01dB,-7.25662064554416e+00°)
7.09528760844540e+06	(-1.97832056582943e+01dB,-7.24404557674473e+00°)
7.11164393561404e+06	(-1.97414289366266e+01dB,-7.23150962714776e+00°)
7.12803796801088e+06	(-1.96996412667304e+01dB,-7.21901275188411e+00°)
7.14446979255546e+06	(-1.96578426037186e+01dB,-7.20655490635437e+00°)
7.16093949636766e+06	(-1.96160329024058e+01dB,-7.19413604622922e+00°)
7.17744716676822e+06	(-1.95742121173066e+01dB,-7.18175612745106e+00°)
7.19399289127917e+06	(-1.95323802026336e+01dB,-7.16941510623492e+00°)
7.21057675762428e+06	(-1.94905371122963e+01dB,-7.15711293906943e+00°)
7.22719885372958e+06	(-1.94486827998987e+01dB,-7.14484958271813e+00°)
7.24385926772375e+06	(-1.94068172187381e+01dB,-7.13262499422063e+00°)
7.26055808793865e+06	(-1.93649403218036e+01dB,-7.12043913089372e+00°)
7.27729540290977e+06	(-1.93230520617733e+01dB,-7.10829195033255e+00°)
7.29407130137668e+06	(-1.92811523910139e+01dB,-7.09618341041148e+00°)
7.31088587228353e+06	(-1.92392412615778e+01dB,-7.08411346928597e+00°)
7.32773920477949e+06	(-1.91973186252019e+01dB,-7.07208208539290e+00°)
7.34463138821927e+06	(-1.91553844333060e+01dB,-7.06008921745260e+00°)
7.36156251216353e+06	(-1.91134386369903e+01dB,-7.04813482446935e+00°)
7.37853266637941e+06	(-1.90714811870340e+01dB,-7.03621886573309e+00°)
7.39554194084097e+06	(-1.90295120338937e+01dB,-7.02434130082040e+00°)
7.41259042572970e+06	(-1.89875311277008e+01dB,-7.01250208959600e+00°)
7.42967821143497e+06	(-1.89455384182604e+01dB,-7.00070119221349e+00°)
7.44680538855451e+06	(-1.89035338550491e+01dB,-6.98893856911712e+00°)
7.46397204789491e+06	(-1.88615173872128e+01dB,-6.97721418104304e+00°)
7.48117828047210e+06	(-1.88194889635654e+01dB,-6.96552798902013e+00°)
7.49842417751180e+06	(-1.87774485325864e+01dB,-6.95387995437182e+00°)
7.51570983045004e+06	(-1.87353960424189e+01dB,-6.94227003871711e+00°)
7.53303533093364e+06	(-1.86933314408681e+01dB,-6.93069820397196e+00°)
7.55040077082067e+06	(-1.86512546753989e+01dB,-6.91916441235058e+00°)
7.56780624218097e+06	(-1.86091656931339e+01dB,-6.90766862636697e+00°)
7.58525183729661e+06	(-1.85670644408518e+01dB,-6.89621080883591e+00°)
7.60273764866240e+06	(-1.85249508649848e+01dB,-6.88479092287474e+00°)
7.62026376898638e+06	(-1.84828249116171e+01dB,-6.87340893190455e+00°)
7.63783029119029e+06	(-1.84406865264822e+01dB,-6.86206479965136e+00°)
7.65543730841007e+06	(-1.83985356549614e+01dB,-6.85075849014799e+00°)
7.67308491399640e+06	(-1.83563722420816e+01dB,-6.83948996773514e+00°)
7.69077320151510e+06	(-1.83141962325129e+01dB,-6.82825919706290e+00°)
7.70850226474772e+06	(-1.82720075705664e+01dB,-6.81706614309229e+00°)
7.72627219769199e+06	(-1.82298062001927e+01dB,-6.80591077109668e+00°)
7.74408309456233e+06	(-1.81875920649790e+01dB,-6.79479304666298e+00°)
7.76193504979033e+06	(-1.81453651081472e+01dB,-6.78371293569380e+00°)
7.77982815802529e+06	(-1.81031252725519e+01dB,-6.77267040440830e+00°)
7.79776251413469e+06	(-1.80608725006777e+01dB,-6.76166541934400e+00°)
7.81573821320469e+06	(-1.80186067346374e+01dB,-6.75069794735828e+00°)
7.83375535054066e+06	(-1.79763279161693e+01dB,-6.73976795562986e+00°)
7.85181402166768e+06	(-1.79340359866356e+01dB,-6.72887541166059e+00°)
7.86991432233102e+06	(-1.78917308870192e+01dB,-6.71802028327664e+00°)
7.88805634849666e+06	(-1.78494125579221e+01dB,-6.70720253863066e+00°)
7.90624019635183e+06	(-1.78070809395627e+01dB,-6.69642214620266e+00°)
7.92446596230548e+06	(-1.77647359717735e+01dB,-6.68567907480220e+00°)
7.94273374298881e+06	(-1.77223775939989e+01dB,-6.67497329356985e+00°)
7.96104363525577e+06	(-1.76800057452925e+01dB,-6.66430477197894e+00°)
7.97939573618358e+06	(-1.76376203643148e+01dB,-6.65367347983708e+00°)
7.99779014307326e+06	(-1.75952213893309e+01dB,-6.64307938728776e+00°)
8.01622695345012e+06	(-1.75528087582078e+01dB,-6.63252246481245e+00°)
8.03470626506430e+06	(-1.75103824084121e+01dB,-6.62200268323203e+00°)
8.05322817589126e+06	(-1.74679422770074e+01dB,-6.61152001370847e+00°)
8.07179278413234e+06	(-1.74254883006517e+01dB,-6.60107442774696e+00°)
8.09040018821524e+06	(-1.73830204155951e+01dB,-6.59066589719716e+00°)
8.10905048679456e+06	(-1.73405385576769e+01dB,-6.58029439425554e+00°)
8.12774377875233e+06	(-1.72980426623234e+01dB,-6.56995989146671e+00°)
8.14648016319852e+06	(-1.72555326645448e+01dB,-6.55966236172553e+00°)
8.16525973947158e+06	(-1.72130084989330e+01dB,-6.54940177827905e+00°)
8.18408260713895e+06	(-1.71704700996586e+01dB,-6.53917811472811e+00°)
8.20294886599760e+06	(-1.71279174004686e+01dB,-6.52899134502922e+00°)
8.22185861607456e+06	(-1.70853503346834e+01dB,-6.51884144349689e+00°)
8.24081195762745e+06	(-1.70427688351940e+01dB,-6.50872838480500e+00°)
8.25980899114498e+06	(-1.70001728344594e+01dB,-6.49865214398915e+00°)
8.27884981734754e+06	(-1.69575622645040e+01dB,-6.48861269644849e+00°)
8.29793453718771e+06	(-1.69149370569144e+01dB,-6.47861001794765e+00°)
8.31706325185075e+06	(-1.68722971428372e+01dB,-6.46864408461890e+00°)
8.33623606275521e+06	(-1.68296424529750e+01dB,-6.45871487296387e+00°)
8.35545307155344e+06	(-1.67869729175848e+01dB,-6.44882235985606e+00°)
8.37471438013209e+06	(-1.67442884664746e+01dB,-6.43896652254263e+00°)
8.39402009061270e+06	(-1.67015890290000e+01dB,-6.42914733864630e+00°)
8.41337030535224e+06	(-1.66588745340622e+01dB,-6.41936478616798e+00°)
8.43276512694361e+06	(-1.66161449101040e+01dB,-6.40961884348843e+00°)
8.45220465821622e+06	(-1.65734000851077e+01dB,-6.39990948937073e+00°)
8.47168900223654e+06	(-1.65306399865915e+01dB,-6.39023670296234e+00°)
8.49121826230862e+06	(-1.64878645416067e+01dB,-6.38060046379712e+00°)
8.51079254197465e+06	(-1.64450736767344e+01dB,-6.37100075179806e+00°)
8.53041194501551e+06	(-1.64022673180826e+01dB,-6.36143754727900e+00°)
8.55007657545133e+06	(-1.63594453912830e+01dB,-6.35191083094715e+00°)
8.56978653754202e+06	(-1.63166078214879e+01dB,-6.34242058390549e+00°)
8.58954193578783e+06	(-1.62737545333669e+01dB,-6.33296678765479e+00°)
8.60934287492993e+06	(-1.62308854511036e+01dB,-6.32354942409638e+00°)
8.62918945995091e+06	(-1.61880004983926e+01dB,-6.31416847553415e+00°)
8.64908179607540e+06	(-1.61450995984361e+01dB,-6.30482392467708e+00°)
8.66901998877058e+06	(-1.61021826739403e+01dB,-6.29551575464172e+00°)
8.68900414374677e+06	(-1.60592496471129e+01dB,-6.28624394895475e+00°)
8.70903436695796e+06	(-1.60163004396587e+01dB,-6.27700849155505e+00°)
8.72911076460241e+06	(-1.59733349727769e+01dB,-6.26780936679661e+00°)
8.74923344312317e+06	(-1.59303531671573e+01dB,-6.25864655945094e+00°)
8.76940250920869e+06	(-1.58873549429773e+01dB,-6.24952005470971e+00°)
8.78961806979335e+06	(-1.58443402198979e+01dB,-6.24042983818714e+00°)
8.80988023205803e+06	(-1.58013089170604e+01dB,-6.23137589592268e+00°)
8.83018910343071e+06	(-1.57582609530829e+01dB,-6.22235821438392e+00°)
8.85054479158699e+06	(-1.57151962460567e+01dB,-6.21337678046879e+00°)
8.87094740445071e+06	(-1.56721147135426e+01dB,-6.20443158150874e+00°)
8.89139705019450e+06	(-1.56290162725674e+01dB,-6.19552260527126e+00°)
8.91189383724033e+06	(-1.55859008396200e+01dB,-6.18664983996249e+00°)
8.93243787426013e+06	(-1.55427683306480e+01dB,-6.17781327423038e+00°)
8.95302927017635e+06	(-1.54996186610536e+01dB,-6.16901289716720e+00°)
8.97366813416251e+06	(-1.54564517456900e+01dB,-6.16024869831248e+00°)
8.99435457564382e+06	(-1.54132674988576e+01dB,-6.15152066765612e+00°)
9.01508870429772e+06	(-1.53700658343004e+01dB,-6.14282879564093e+00°)
9.03587063005451e+06	(-1.53268466652014e+01dB,-6.13417307316604e+00°)
9.05670046309789e+06	(-1.52836099041793e+01dB,-6.12555349158938e+00°)
9.07757831386555e+06	(-1.52403554632845e+01dB,-6.11697004273107e+00°)
9.09850429304979e+06	(-1.51970832539949e+01dB,-6.10842271887641e+00°)
9.11947851159806e+06	(-1.51537931872119e+01dB,-6.09991151277885e+00°)
9.14050108071359e+06	(-1.51104851732563e+01dB,-6.09143641766324e+00°)
9.16157211185593e+06	(-1.50671591218646e+01dB,-6.08299742722905e+00°)
9.18269171674160e+06	(-1.50238149421842e+01dB,-6.07459453565318e+00°)
9.20386000734465e+06	(-1.49804525427697e+01dB,-6.06622773759379e+00°)
9.22507709589724e+06	(-1.49370718315787e+01dB,-6.05789702819312e+00°)
9.24634309489026e+06	(-1.48936727159671e+01dB,-6.04960240308086e+00°)
9.26765811707392e+06	(-1.48502551026853e+01dB,-6.04134385837770e+00°)
9.28902227545836e+06	(-1.48068188978735e+01dB,-6.03312139069849e+00°)
9.31043568331420e+06	(-1.47633640070578e+01dB,-6.02493499715594e+00°)
9.33189845417321e+06	(-1.47198903351450e+01dB,-6.01678467536359e+00°)
9.35341070182887e+06	(-1.46763977864191e+01dB,-6.00867042343986e+00°)
9.37497254033696e+06	(-1.46328862645359e+01dB,-6.00059224001127e+00°)
9.39658408401621e+06	(-1.45893556725193e+01dB,-5.99255012421607e+00°)
9.41824544744886e+06	(-1.45458059127558e+01dB,-5.98454407570800e+00°)
9.43995674548133e+06	(-1.45022368869907e+01dB,-5.97657409465974e+00°)
9.46171809322474e+06	(-1.44586484963230e+01dB,-5.96864018176672e+00°)
9.48352960605559e+06	(-1.44150406412008e+01dB,-5.96074233825098e+00°)
9.50539139961636e+06	(-1.43714132214166e+01dB,-5.95288056586483e+00°)
9.52730358981609e+06	(-1.43277661361021e+01dB,-5.94505486689462e+00°)
9.54926629283105e+06	(-1.42840992837240e+01dB,-5.93726524416489e+00°)
9.57127962510529e+06	(-1.42404125620787e+01dB,-5.92951170104199e+00°)
9.59334370335130e+06	(-1.41967058682874e+01dB,-5.92179424143834e+00°)
9.61545864455065e+06	(-1.41529790987910e+01dB,-5.91411286981612e+00°)
